
T07B0 000:589 SEGGER J-Link V4.90 Log File (0001ms, 0270ms total)
T07B0 000:589 DLL Compiled: Jul 28 2014 10:35:20 (0001ms, 0270ms total)
T07B0 000:589 Logging started @ 2019-04-11 11:10 (0001ms, 0270ms total)
T07B0 000:590 JLINK_SetWarnOutHandler(...) (0000ms, 0270ms total)
T07B0 000:590 JLINK_OpenEx(...)
Firmware: J-Link ARM-OB STM32 compiled Aug 22 2012 19:52:04
Hardware: V7.00
S/N: 18060812
Feature(s): RDI,FlashDL,FlashBP,JFlash,GDBFull  returns O.K. (0285ms, 0555ms total)
T07B0 000:875 JLINK_SetErrorOutHandler(...) (0000ms, 0555ms total)
T07B0 000:875 JLINK_ExecCommand("ProjectFile = "D:\Git\ÖÐ¿ÆºÆµçgitGroup\FMU_with_MSP432\TI_FMU\JLinkSettings.ini"", ...)Device "UNSPECIFIED" selected (0 KB flash, 0 KB RAM).  returns 0x00 (0003ms, 0558ms total)
T07B0 000:880 JLINK_ExecCommand("Device = MSP432P401R", ...)Device "UNSPECIFIED" selected (0 KB flash, 0 KB RAM).  returns 0x00 (0009ms, 0567ms total)
T07B0 000:889 JLINK_ExecCommand("DisableConnectionTimeout", ...)  returns 0x01 (0000ms, 0567ms total)
T07B0 000:889 JLINK_GetHardwareVersion()  returns 0x11170 (0000ms, 0567ms total)
T07B0 000:889 JLINK_GetDLLVersion()  returns 49000 (0000ms, 0567ms total)
T07B0 000:889 JLINK_GetFirmwareString(...) (0000ms, 0567ms total)
T07B0 000:911 JLINK_GetDLLVersion()  returns 49000 (0000ms, 0567ms total)
T07B0 000:911 JLINK_GetCompileDateTime() (0000ms, 0567ms total)
T07B0 000:918 JLINK_GetFirmwareString(...) (0000ms, 0567ms total)
T07B0 000:923 JLINK_GetHardwareVersion()  returns 0x11170 (0000ms, 0567ms total)
T07B0 000:945 JLINK_TIF_Select(JLINKARM_TIF_SWD)  returns 0x00 (0001ms, 0568ms total)
T07B0 000:946 JLINK_SetSpeed(5000) (0000ms, 0568ms total)
T07B0 000:946 JLINK_GetId() >0x108 TIF>Found SWD-DP with ID 0x2BA01477 >0x0D TIF> >0x21 TIF> >0x0D TIF> >0x28 TIF> >0x0D TIF> >0x28 TIF> >0x0D TIF> >0x21 TIF> >0x0D TIF> >0x28 TIF> >0x0D TIF> >0x21 TIF> >0x0D TIF> >0x21 TIF> >0x0D TIF> >0x21 TIF> >0x0D TIF> >0x21 TIF> >0x0D TIF> >0x28 TIF> >0x0D TIF> >0x28 TIF> >0x0D TIF> >0x21 TIF> >0x0D TIF> >0x28 TIF> >0x0D TIF> >0x28 TIF> >0x0D TIF> >0x28 TIF> >0x0D TIF> >0x21 TIF> >0x0D TIF> >0x21 TIF> >0x0D TIF> >0x28 TIF> >0x0D TIF> >0x21 TIF> >0x0D TIF>
 >0x21 TIF>Found Cortex-M4 r0p1, Little endian. -- CPU_WriteMem(4 bytes @ 0xE0002000) -- CPU_ReadMem(4 bytes @ 0xE000EDF0) -- CPU_ReadMem(4 bytes @ 0xE0002000)FPUnit: 6 code (BP) slots and 2 literal slots -- CPU_ReadMem(4 bytes @ 0xE000EDFC) -- CPU_ReadMem(4 bytes @ 0xE0001000) -- CPU_WriteMem(4 bytes @ 0xE0001000) -- CPU_ReadMem(4 bytes @ 0xE00FF010)TPIU fitted. -- CPU_ReadMem(4 bytes @ 0xE00FF014) -- CPU_ReadMem(4 bytes @ 0xE00FF018) >0x0D TIF> >0x21 TIF>  returns 0x2BA01477 (0037ms, 0605ms total)
T07B0 000:983 JLINK_GetDLLVersion()  returns 49000 (0000ms, 0605ms total)
T07B0 000:983 JLINK_CORE_GetFound()  returns 0xE0000FF (0000ms, 0605ms total)
T07B0 000:988 JLINK_GetDebugInfo(0x100) -- Value=0xE00FF003  returns 0x00 (0000ms, 0605ms total)
T07B0 000:988 JLINK_GetDebugInfo(0x101)  returns 0xFFFFFFFF (0000ms, 0605ms total)
T07B0 000:988 JLINK_ReadMem (0xE0041FF0, 0x0010 Bytes, ...) -- CPU is running -- CPU_ReadMem(16 bytes @ 0xE0041FF0) - Data: 00 00 00 00 00 00 00 00 00 00 00 00 00 00 00 00  returns 0x00 (0001ms, 0606ms total)
T07B0 000:989 JLINK_GetDebugInfo(0x102)  returns 0xFFFFFFFF (0000ms, 0606ms total)
T07B0 000:989 JLINK_GetDebugInfo(0x103)  returns 0xFFFFFFFF (0000ms, 0606ms total)
T07B0 000:989 JLINK_ReadMem (0xE0040FF0, 0x0010 Bytes, ...) -- CPU is running -- CPU_ReadMem(16 bytes @ 0xE0040FF0) - Data: 0D 00 00 00 90 00 00 00 05 00 00 00 B1 00 00 00  returns 0x00 (0001ms, 0607ms total)
T07B0 000:990 JLINK_GetDebugInfo(0x104)  returns 0xFFFFFFFF (0000ms, 0607ms total)
T07B0 000:990 JLINK_GetDebugInfo(0x105)  returns 0xFFFFFFFF (0000ms, 0607ms total)
T07B0 000:990 JLINK_GetDebugInfo(0x106)  returns 0xFFFFFFFF (0000ms, 0607ms total)
T07B0 000:990 JLINK_GetDebugInfo(0x107)  returns 0xFFFFFFFF (0000ms, 0607ms total)
T07B0 000:990 JLINK_GetDebugInfo(0x10C)  returns 0xFFFFFFFF (0000ms, 0607ms total)
T07B0 000:990 JLINK_ReadMemU32(0xE000EF40, 0x0001 Items, ...) -- CPU is running -- CPU_ReadMem(4 bytes @ 0xE000EF40) - Data: 21 00 11 10  returns 0x01 (0000ms, 0607ms total)
T07B0 000:990 JLINK_ReadMemU32(0xE000EF44, 0x0001 Items, ...) -- CPU is running -- CPU_ReadMem(4 bytes @ 0xE000EF44) - Data: 11 00 00 11  returns 0x01 (0001ms, 0608ms total)
T07B0 000:991 JLINK_ReadMemU32(0xE000ED00, 0x0001 Items, ...) -- CPU is running -- CPU_ReadMem(4 bytes @ 0xE000ED00) - Data: 41 C2 0F 41  returns 0x01 (0000ms, 0608ms total)
T07B0 000:991 JLINK_SetResetType(JLINKARM_RESET_TYPE_NORMAL)  returns JLINKARM_RESET_TYPE_NORMAL (0001ms, 0609ms total)
T07B0 000:992 JLINK_Reset() -- CPU is running -- CPU_WriteMem(4 bytes @ 0xE000EDF0) -- CPU is running -- CPU_WriteMem(4 bytes @ 0xE000EDFC) >0x35 TIF> -- CPU is running -- CPU_WriteMem(4 bytes @ 0xE000ED0C) -- CPU is running -- CPU_ReadMem(4 bytes @ 0xE000EDF0) -- CPU is running -- CPU_ReadMem(4 bytes @ 0xE000EDF0) -- CPU is running -- CPU_WriteMem(4 bytes @ 0xE000EDF0) -- CPU is running -- CPU_WriteMem(4 bytes @ 0xE000EDFC) -- CPU is running -- CPU_ReadMem(4 bytes @ 0xE000EDF0)
 -- CPU_WriteMem(4 bytes @ 0xE0002000) -- CPU_ReadMem(4 bytes @ 0xE000EDFC) -- CPU_ReadMem(4 bytes @ 0xE0001000) (0019ms, 0628ms total)
T07B0 001:011 JLINK_Halt()  returns 0x00 (0000ms, 0628ms total)
T07B0 001:011 JLINK_IsHalted()  returns TRUE (0000ms, 0628ms total)
T07B0 001:011 JLINK_ReadMemU32(0xE000EDF0, 0x0001 Items, ...) -- CPU_ReadMem(4 bytes @ 0xE000EDF0) - Data: 03 00 03 00  returns 0x01 (0001ms, 0629ms total)
T07B0 001:012 JLINK_WriteU32(0xE000EDF0, 0xA05F0003) -- CPU_WriteMem(4 bytes @ 0xE000EDF0)  returns 0x00 (0001ms, 0630ms total)
T07B0 001:013 JLINK_WriteU32(0xE000EDFC, 0x01000000) -- CPU_WriteMem(4 bytes @ 0xE000EDFC)  returns 0x00 (0000ms, 0630ms total)
T07B0 001:035 JLINK_GetHWStatus(...)  returns 0x00 (0000ms, 0630ms total)
T07B0 001:047 JLINK_GetNumBPUnits(Type = 0xFFFFFF00)  returns 0x06 (0000ms, 0630ms total)
T07B0 001:047 JLINK_GetNumBPUnits(Type = 0xF0)  returns 0x2000 (0000ms, 0630ms total)
T07B0 001:047 JLINK_GetNumWPUnits()  returns 0x04 (0000ms, 0630ms total)
T07B0 001:061 JLINK_GetSpeed()  returns 0xFA0 (0000ms, 0630ms total)
T07B0 001:067 JLINK_ReadMemU32(0xE000E004, 0x0001 Items, ...) -- CPU_ReadMem(4 bytes @ 0xE000E004) - Data: 01 00 00 00  returns 0x01 (0001ms, 0631ms total)
T07B0 001:068 JLINK_ReadMemU32(0xE000E004, 0x0001 Items, ...) -- CPU_ReadMem(4 bytes @ 0xE000E004) - Data: 01 00 00 00  returns 0x01 (0000ms, 0631ms total)
T07B0 001:068 JLINK_WriteMem(0xE0001000, 0x001C Bytes, ...) - Data: 01 00 00 00 00 00 00 00 00 00 00 00 00 00 00 00 ... -- CPU_WriteMem(28 bytes @ 0xE0001000)  returns 0x1C (0001ms, 0632ms total)
T07B0 001:069 JLINK_ReadMem (0xE0001000, 0x001C Bytes, ...) -- CPU_ReadMem(28 bytes @ 0xE0001000) - Data: 01 00 00 40 00 00 00 00 00 00 00 00 00 00 00 00 ...  returns 0x00 (0001ms, 0633ms total)
T07B0 001:070 JLINK_Halt()  returns 0x00 (0000ms, 0633ms total)
T07B0 001:070 JLINK_IsHalted()  returns TRUE (0000ms, 0633ms total)
T07B0 001:083 JLINK_WriteMem(0x01000000, 0x351C Bytes, ...) - Data: 00 BE 0A E0 0D 78 2D 06 68 40 08 24 40 00 00 D3 ... -- CPU_WriteMem(13596 bytes @ 0x01000000)  returns 0x351C (0153ms, 0786ms total)
T07B0 001:236 JLINK_WriteReg(R0, 0x00000000)  returns 0x00 (0000ms, 0786ms total)
T07B0 001:236 JLINK_WriteReg(R1, 0x00B71B00)  returns 0x00 (0000ms, 0786ms total)
T07B0 001:236 JLINK_WriteReg(R2, 0x00000001)  returns 0x00 (0000ms, 0786ms total)
T07B0 001:236 JLINK_WriteReg(R3, 0x00000000)  returns 0x00 (0001ms, 0787ms total)
T07B0 001:237 JLINK_WriteReg(R4, 0x00000000)  returns 0x00 (0000ms, 0787ms total)
T07B0 001:237 JLINK_WriteReg(R5, 0x00000000)  returns 0x00 (0000ms, 0787ms total)
T07B0 001:237 JLINK_WriteReg(R6, 0x00000000)  returns 0x00 (0000ms, 0787ms total)
T07B0 001:237 JLINK_WriteReg(R7, 0x00000000)  returns 0x00 (0000ms, 0787ms total)
T07B0 001:237 JLINK_WriteReg(R8, 0x00000000)  returns 0x00 (0000ms, 0787ms total)
T07B0 001:237 JLINK_WriteReg(R9, 0x0100306C)  returns 0x00 (0000ms, 0787ms total)
T07B0 001:237 JLINK_WriteReg(R10, 0x00000000)  returns 0x00 (0000ms, 0787ms total)
T07B0 001:237 JLINK_WriteReg(R11, 0x00000000)  returns 0x00 (0000ms, 0787ms total)
T07B0 001:237 JLINK_WriteReg(R12, 0x00000000)  returns 0x00 (0000ms, 0787ms total)
T07B0 001:237 JLINK_WriteReg(R13 (SP), 0x0100E000)  returns 0x00 (0001ms, 0788ms total)
T07B0 001:238 JLINK_WriteReg(R14, 0x01000001)  returns 0x00 (0000ms, 0788ms total)
T07B0 001:238 JLINK_WriteReg(R15 (PC), 0x010000F0)  returns 0x00 (0000ms, 0788ms total)
T07B0 001:238 JLINK_WriteReg(XPSR, 0x01000000)  returns 0x00 (0000ms, 0788ms total)
T07B0 001:238 JLINK_WriteReg(MSP, 0x0100E000)  returns 0x00 (0000ms, 0788ms total)
T07B0 001:238 JLINK_WriteReg(PSP, 0x0100E000)  returns 0x00 (0000ms, 0788ms total)
T07B0 001:238 JLINK_WriteReg(CFBP, 0x00000000)  returns 0x00 (0000ms, 0788ms total)
T07B0 001:238 JLINK_SetBPEx(Addr = 0x01000000, Type = 0xFFFFFFF2)  returns 0x00000001 (0000ms, 0788ms total)
T07B0 001:238 JLINK_Go() -- CPU_WriteMem(4 bytes @ 0xE0002000) -- CPU_WriteMem(4 bytes @ 0xE0002008) -- CPU_WriteMem(4 bytes @ 0xE000200C) -- CPU_WriteMem(4 bytes @ 0xE0002010) -- CPU_WriteMem(4 bytes @ 0xE0002014) -- CPU_WriteMem(4 bytes @ 0xE0002018) -- CPU_WriteMem(4 bytes @ 0xE000201C) -- CPU_WriteMem(4 bytes @ 0xE0001004) (0008ms, 0796ms total)
T07B0 001:246 JLINK_IsHalted()  returns TRUE (0004ms, 0800ms total)
T07B0 001:250 JLINK_ReadReg(R15 (PC))  returns 0x01000000 (0000ms, 0796ms total)
T07B0 001:250 JLINK_ClrBPEx(BPHandle = 0x00000001)  returns 0x00 (0000ms, 0796ms total)
T07B0 001:250 JLINK_ReadReg(R0)  returns 0x00000000 (0000ms, 0796ms total)
T07B0 001:252 JLINK_WriteReg(R0, 0x00000000)  returns 0x00 (0000ms, 0796ms total)
T07B0 001:252 JLINK_WriteReg(R1, 0x00001000)  returns 0x00 (0000ms, 0796ms total)
T07B0 001:252 JLINK_WriteReg(R2, 0x000000FF)  returns 0x00 (0000ms, 0796ms total)
T07B0 001:252 JLINK_WriteReg(R3, 0x00000000)  returns 0x00 (0000ms, 0796ms total)
T07B0 001:252 JLINK_WriteReg(R4, 0x00000000)  returns 0x00 (0000ms, 0796ms total)
T07B0 001:252 JLINK_WriteReg(R5, 0x00000000)  returns 0x00 (0000ms, 0796ms total)
T07B0 001:252 JLINK_WriteReg(R6, 0x00000000)  returns 0x00 (0000ms, 0796ms total)
T07B0 001:252 JLINK_WriteReg(R7, 0x00000000)  returns 0x00 (0000ms, 0796ms total)
T07B0 001:252 JLINK_WriteReg(R8, 0x00000000)  returns 0x00 (0001ms, 0797ms total)
T07B0 001:253 JLINK_WriteReg(R9, 0x0100306C)  returns 0x00 (0000ms, 0797ms total)
T07B0 001:253 JLINK_WriteReg(R10, 0x00000000)  returns 0x00 (0000ms, 0797ms total)
T07B0 001:253 JLINK_WriteReg(R11, 0x00000000)  returns 0x00 (0000ms, 0797ms total)
T07B0 001:253 JLINK_WriteReg(R12, 0x00000000)  returns 0x00 (0000ms, 0797ms total)
T07B0 001:253 JLINK_WriteReg(R13 (SP), 0x0100E000)  returns 0x00 (0000ms, 0797ms total)
T07B0 001:253 JLINK_WriteReg(R14, 0x01000001)  returns 0x00 (0000ms, 0797ms total)
T07B0 001:253 JLINK_WriteReg(R15 (PC), 0x01000020)  returns 0x00 (0000ms, 0797ms total)
T07B0 001:253 JLINK_WriteReg(XPSR, 0x01000000)  returns 0x00 (0000ms, 0797ms total)
T07B0 001:253 JLINK_WriteReg(MSP, 0x0100E000)  returns 0x00 (0000ms, 0797ms total)
T07B0 001:253 JLINK_WriteReg(PSP, 0x0100E000)  returns 0x00 (0000ms, 0797ms total)
T07B0 001:254 JLINK_WriteReg(CFBP, 0x00000000)  returns 0x00 (0000ms, 0798ms total)
T07B0 001:254 JLINK_SetBPEx(Addr = 0x01000000, Type = 0xFFFFFFF2)  returns 0x00000002 (0000ms, 0798ms total)
T07B0 001:254 JLINK_Go() -- CPU_WriteMem(4 bytes @ 0xE0002000) (0003ms, 0801ms total)
T07B0 001:257 JLINK_IsHalted()  returns TRUE (0003ms, 0804ms total)
T07B0 001:260 JLINK_ReadReg(R15 (PC))  returns 0x01000000 (0000ms, 0801ms total)
T07B0 001:260 JLINK_ClrBPEx(BPHandle = 0x00000002)  returns 0x00 (0000ms, 0801ms total)
T07B0 001:260 JLINK_ReadReg(R0)  returns 0x00000001 (0001ms, 0802ms total)
T07B0 001:261 JLINK_WriteReg(R0, 0x00000000)  returns 0x00 (0000ms, 0802ms total)
T07B0 001:261 JLINK_WriteReg(R1, 0x00001000)  returns 0x00 (0000ms, 0802ms total)
T07B0 001:261 JLINK_WriteReg(R2, 0x000000FF)  returns 0x00 (0000ms, 0802ms total)
T07B0 001:261 JLINK_WriteReg(R3, 0x00000000)  returns 0x00 (0000ms, 0802ms total)
T07B0 001:261 JLINK_WriteReg(R4, 0x00000000)  returns 0x00 (0000ms, 0802ms total)
T07B0 001:261 JLINK_WriteReg(R5, 0x00000000)  returns 0x00 (0001ms, 0803ms total)
T07B0 001:262 JLINK_WriteReg(R6, 0x00000000)  returns 0x00 (0000ms, 0803ms total)
T07B0 001:262 JLINK_WriteReg(R7, 0x00000000)  returns 0x00 (0000ms, 0803ms total)
T07B0 001:262 JLINK_WriteReg(R8, 0x00000000)  returns 0x00 (0000ms, 0803ms total)
T07B0 001:262 JLINK_WriteReg(R9, 0x0100306C)  returns 0x00 (0000ms, 0803ms total)
T07B0 001:262 JLINK_WriteReg(R10, 0x00000000)  returns 0x00 (0000ms, 0803ms total)
T07B0 001:262 JLINK_WriteReg(R11, 0x00000000)  returns 0x00 (0000ms, 0803ms total)
T07B0 001:262 JLINK_WriteReg(R12, 0x00000000)  returns 0x00 (0000ms, 0803ms total)
T07B0 001:263 JLINK_WriteReg(R13 (SP), 0x0100E000)  returns 0x00 (0000ms, 0804ms total)
T07B0 001:263 JLINK_WriteReg(R14, 0x01000001)  returns 0x00 (0000ms, 0804ms total)
T07B0 001:263 JLINK_WriteReg(R15 (PC), 0x01000348)  returns 0x00 (0000ms, 0804ms total)
T07B0 001:263 JLINK_WriteReg(XPSR, 0x01000000)  returns 0x00 (0000ms, 0804ms total)
T07B0 001:263 JLINK_WriteReg(MSP, 0x0100E000)  returns 0x00 (0000ms, 0804ms total)
T07B0 001:263 JLINK_WriteReg(PSP, 0x0100E000)  returns 0x00 (0000ms, 0804ms total)
T07B0 001:263 JLINK_WriteReg(CFBP, 0x00000000)  returns 0x00 (0001ms, 0805ms total)
T07B0 001:264 JLINK_SetBPEx(Addr = 0x01000000, Type = 0xFFFFFFF2)  returns 0x00000003 (0000ms, 0805ms total)
T07B0 001:264 JLINK_Go() -- CPU_WriteMem(4 bytes @ 0xE0002000) (0002ms, 0807ms total)
T07B0 001:267 JLINK_IsHalted()  returns FALSE (0000ms, 0808ms total)
T07B0 001:533 JLINK_IsHalted()  returns TRUE (0004ms, 0812ms total)
T07B0 001:537 JLINK_ReadReg(R15 (PC))  returns 0x01000000 (0000ms, 0808ms total)
T07B0 001:537 JLINK_ClrBPEx(BPHandle = 0x00000003)  returns 0x00 (0000ms, 0808ms total)
T07B0 001:537 JLINK_ReadReg(R0)  returns 0x00000000 (0000ms, 0808ms total)
T07B0 001:540 JLINK_WriteReg(R0, 0x00001000)  returns 0x00 (0000ms, 0808ms total)
T07B0 001:540 JLINK_WriteReg(R1, 0x00001000)  returns 0x00 (0000ms, 0808ms total)
T07B0 001:540 JLINK_WriteReg(R2, 0x000000FF)  returns 0x00 (0000ms, 0808ms total)
T07B0 001:540 JLINK_WriteReg(R3, 0x00000000)  returns 0x00 (0000ms, 0808ms total)
T07B0 001:540 JLINK_WriteReg(R4, 0x00000000)  returns 0x00 (0000ms, 0808ms total)
T07B0 001:540 JLINK_WriteReg(R5, 0x00000000)  returns 0x00 (0000ms, 0808ms total)
T07B0 001:540 JLINK_WriteReg(R6, 0x00000000)  returns 0x00 (0000ms, 0808ms total)
T07B0 001:540 JLINK_WriteReg(R7, 0x00000000)  returns 0x00 (0000ms, 0808ms total)
T07B0 001:540 JLINK_WriteReg(R8, 0x00000000)  returns 0x00 (0000ms, 0808ms total)
T07B0 001:540 JLINK_WriteReg(R9, 0x0100306C)  returns 0x00 (0000ms, 0808ms total)
T07B0 001:540 JLINK_WriteReg(R10, 0x00000000)  returns 0x00 (0000ms, 0808ms total)
T07B0 001:540 JLINK_WriteReg(R11, 0x00000000)  returns 0x00 (0000ms, 0808ms total)
T07B0 001:540 JLINK_WriteReg(R12, 0x00000000)  returns 0x00 (0000ms, 0808ms total)
T07B0 001:540 JLINK_WriteReg(R13 (SP), 0x0100E000)  returns 0x00 (0000ms, 0808ms total)
T07B0 001:540 JLINK_WriteReg(R14, 0x01000001)  returns 0x00 (0000ms, 0808ms total)
T07B0 001:540 JLINK_WriteReg(R15 (PC), 0x01000020)  returns 0x00 (0000ms, 0808ms total)
T07B0 001:540 JLINK_WriteReg(XPSR, 0x01000000)  returns 0x00 (0000ms, 0808ms total)
T07B0 001:540 JLINK_WriteReg(MSP, 0x0100E000)  returns 0x00 (0000ms, 0808ms total)
T07B0 001:540 JLINK_WriteReg(PSP, 0x0100E000)  returns 0x00 (0000ms, 0808ms total)
T07B0 001:540 JLINK_WriteReg(CFBP, 0x00000000)  returns 0x00 (0000ms, 0808ms total)
T07B0 001:540 JLINK_SetBPEx(Addr = 0x01000000, Type = 0xFFFFFFF2)  returns 0x00000004 (0000ms, 0808ms total)
T07B0 001:540 JLINK_Go() -- CPU_WriteMem(4 bytes @ 0xE0002000) (0003ms, 0811ms total)
T07B0 001:543 JLINK_IsHalted()  returns TRUE (0003ms, 0814ms total)
T07B0 001:546 JLINK_ReadReg(R15 (PC))  returns 0x01000000 (0000ms, 0811ms total)
T07B0 001:546 JLINK_ClrBPEx(BPHandle = 0x00000004)  returns 0x00 (0000ms, 0811ms total)
T07B0 001:546 JLINK_ReadReg(R0)  returns 0x00000001 (0000ms, 0811ms total)
T07B0 001:546 JLINK_WriteReg(R0, 0x00001000)  returns 0x00 (0000ms, 0811ms total)
T07B0 001:546 JLINK_WriteReg(R1, 0x00001000)  returns 0x00 (0000ms, 0811ms total)
T07B0 001:546 JLINK_WriteReg(R2, 0x000000FF)  returns 0x00 (0000ms, 0811ms total)
T07B0 001:546 JLINK_WriteReg(R3, 0x00000000)  returns 0x00 (0000ms, 0811ms total)
T07B0 001:546 JLINK_WriteReg(R4, 0x00000000)  returns 0x00 (0000ms, 0811ms total)
T07B0 001:546 JLINK_WriteReg(R5, 0x00000000)  returns 0x00 (0000ms, 0811ms total)
T07B0 001:546 JLINK_WriteReg(R6, 0x00000000)  returns 0x00 (0000ms, 0811ms total)
T07B0 001:546 JLINK_WriteReg(R7, 0x00000000)  returns 0x00 (0001ms, 0812ms total)
T07B0 001:547 JLINK_WriteReg(R8, 0x00000000)  returns 0x00 (0000ms, 0812ms total)
T07B0 001:547 JLINK_WriteReg(R9, 0x0100306C)  returns 0x00 (0000ms, 0812ms total)
T07B0 001:547 JLINK_WriteReg(R10, 0x00000000)  returns 0x00 (0000ms, 0812ms total)
T07B0 001:547 JLINK_WriteReg(R11, 0x00000000)  returns 0x00 (0000ms, 0812ms total)
T07B0 001:547 JLINK_WriteReg(R12, 0x00000000)  returns 0x00 (0000ms, 0812ms total)
T07B0 001:547 JLINK_WriteReg(R13 (SP), 0x0100E000)  returns 0x00 (0000ms, 0812ms total)
T07B0 001:547 JLINK_WriteReg(R14, 0x01000001)  returns 0x00 (0000ms, 0812ms total)
T07B0 001:547 JLINK_WriteReg(R15 (PC), 0x01000348)  returns 0x00 (0000ms, 0812ms total)
T07B0 001:547 JLINK_WriteReg(XPSR, 0x01000000)  returns 0x00 (0000ms, 0812ms total)
T07B0 001:547 JLINK_WriteReg(MSP, 0x0100E000)  returns 0x00 (0000ms, 0812ms total)
T07B0 001:547 JLINK_WriteReg(PSP, 0x0100E000)  returns 0x00 (0000ms, 0812ms total)
T07B0 001:547 JLINK_WriteReg(CFBP, 0x00000000)  returns 0x00 (0000ms, 0812ms total)
T07B0 001:547 JLINK_SetBPEx(Addr = 0x01000000, Type = 0xFFFFFFF2)  returns 0x00000005 (0000ms, 0812ms total)
T07B0 001:547 JLINK_Go() -- CPU_WriteMem(4 bytes @ 0xE0002000) (0003ms, 0815ms total)
T07B0 001:550 JLINK_IsHalted()  returns FALSE (0000ms, 0815ms total)
T07B0 001:563 JLINK_IsHalted()  returns TRUE (0003ms, 0818ms total)
T07B0 001:566 JLINK_ReadReg(R15 (PC))  returns 0x01000000 (0000ms, 0815ms total)
T07B0 001:566 JLINK_ClrBPEx(BPHandle = 0x00000005)  returns 0x00 (0000ms, 0815ms total)
T07B0 001:566 JLINK_ReadReg(R0)  returns 0x00000000 (0000ms, 0815ms total)
T07B0 001:567 JLINK_WriteReg(R0, 0x00002000)  returns 0x00 (0000ms, 0815ms total)
T07B0 001:567 JLINK_WriteReg(R1, 0x00001000)  returns 0x00 (0000ms, 0815ms total)
T07B0 001:567 JLINK_WriteReg(R2, 0x000000FF)  returns 0x00 (0000ms, 0815ms total)
T07B0 001:567 JLINK_WriteReg(R3, 0x00000000)  returns 0x00 (0000ms, 0815ms total)
T07B0 001:568 JLINK_WriteReg(R4, 0x00000000)  returns 0x00 (0000ms, 0815ms total)
T07B0 001:568 JLINK_WriteReg(R5, 0x00000000)  returns 0x00 (0000ms, 0815ms total)
T07B0 001:568 JLINK_WriteReg(R6, 0x00000000)  returns 0x00 (0000ms, 0815ms total)
T07B0 001:568 JLINK_WriteReg(R7, 0x00000000)  returns 0x00 (0000ms, 0815ms total)
T07B0 001:568 JLINK_WriteReg(R8, 0x00000000)  returns 0x00 (0000ms, 0815ms total)
T07B0 001:568 JLINK_WriteReg(R9, 0x0100306C)  returns 0x00 (0000ms, 0815ms total)
T07B0 001:568 JLINK_WriteReg(R10, 0x00000000)  returns 0x00 (0000ms, 0815ms total)
T07B0 001:568 JLINK_WriteReg(R11, 0x00000000)  returns 0x00 (0000ms, 0815ms total)
T07B0 001:568 JLINK_WriteReg(R12, 0x00000000)  returns 0x00 (0000ms, 0815ms total)
T07B0 001:568 JLINK_WriteReg(R13 (SP), 0x0100E000)  returns 0x00 (0000ms, 0815ms total)
T07B0 001:568 JLINK_WriteReg(R14, 0x01000001)  returns 0x00 (0000ms, 0815ms total)
T07B0 001:568 JLINK_WriteReg(R15 (PC), 0x01000020)  returns 0x00 (0000ms, 0815ms total)
T07B0 001:568 JLINK_WriteReg(XPSR, 0x01000000)  returns 0x00 (0000ms, 0815ms total)
T07B0 001:568 JLINK_WriteReg(MSP, 0x0100E000)  returns 0x00 (0000ms, 0815ms total)
T07B0 001:568 JLINK_WriteReg(PSP, 0x0100E000)  returns 0x00 (0000ms, 0815ms total)
T07B0 001:568 JLINK_WriteReg(CFBP, 0x00000000)  returns 0x00 (0000ms, 0815ms total)
T07B0 001:568 JLINK_SetBPEx(Addr = 0x01000000, Type = 0xFFFFFFF2)  returns 0x00000006 (0000ms, 0815ms total)
T07B0 001:568 JLINK_Go() -- CPU_WriteMem(4 bytes @ 0xE0002000) (0003ms, 0818ms total)
T07B0 001:571 JLINK_IsHalted()  returns TRUE (0003ms, 0821ms total)
T07B0 001:574 JLINK_ReadReg(R15 (PC))  returns 0x01000000 (0000ms, 0818ms total)
T07B0 001:574 JLINK_ClrBPEx(BPHandle = 0x00000006)  returns 0x00 (0000ms, 0818ms total)
T07B0 001:574 JLINK_ReadReg(R0)  returns 0x00000001 (0001ms, 0819ms total)
T07B0 001:575 JLINK_WriteReg(R0, 0x00002000)  returns 0x00 (0000ms, 0819ms total)
T07B0 001:575 JLINK_WriteReg(R1, 0x00001000)  returns 0x00 (0000ms, 0819ms total)
T07B0 001:575 JLINK_WriteReg(R2, 0x000000FF)  returns 0x00 (0000ms, 0819ms total)
T07B0 001:575 JLINK_WriteReg(R3, 0x00000000)  returns 0x00 (0000ms, 0819ms total)
T07B0 001:575 JLINK_WriteReg(R4, 0x00000000)  returns 0x00 (0000ms, 0819ms total)
T07B0 001:575 JLINK_WriteReg(R5, 0x00000000)  returns 0x00 (0000ms, 0819ms total)
T07B0 001:575 JLINK_WriteReg(R6, 0x00000000)  returns 0x00 (0000ms, 0819ms total)
T07B0 001:575 JLINK_WriteReg(R7, 0x00000000)  returns 0x00 (0000ms, 0819ms total)
T07B0 001:575 JLINK_WriteReg(R8, 0x00000000)  returns 0x00 (0000ms, 0819ms total)
T07B0 001:575 JLINK_WriteReg(R9, 0x0100306C)  returns 0x00 (0000ms, 0819ms total)
T07B0 001:575 JLINK_WriteReg(R10, 0x00000000)  returns 0x00 (0000ms, 0819ms total)
T07B0 001:575 JLINK_WriteReg(R11, 0x00000000)  returns 0x00 (0000ms, 0819ms total)
T07B0 001:575 JLINK_WriteReg(R12, 0x00000000)  returns 0x00 (0000ms, 0819ms total)
T07B0 001:575 JLINK_WriteReg(R13 (SP), 0x0100E000)  returns 0x00 (0000ms, 0819ms total)
T07B0 001:575 JLINK_WriteReg(R14, 0x01000001)  returns 0x00 (0000ms, 0819ms total)
T07B0 001:575 JLINK_WriteReg(R15 (PC), 0x01000348)  returns 0x00 (0000ms, 0819ms total)
T07B0 001:575 JLINK_WriteReg(XPSR, 0x01000000)  returns 0x00 (0000ms, 0819ms total)
T07B0 001:575 JLINK_WriteReg(MSP, 0x0100E000)  returns 0x00 (0000ms, 0819ms total)
T07B0 001:575 JLINK_WriteReg(PSP, 0x0100E000)  returns 0x00 (0001ms, 0820ms total)
T07B0 001:576 JLINK_WriteReg(CFBP, 0x00000000)  returns 0x00 (0000ms, 0820ms total)
T07B0 001:576 JLINK_SetBPEx(Addr = 0x01000000, Type = 0xFFFFFFF2)  returns 0x00000007 (0000ms, 0820ms total)
T07B0 001:576 JLINK_Go() -- CPU_WriteMem(4 bytes @ 0xE0002000) (0002ms, 0822ms total)
T07B0 001:578 JLINK_IsHalted()  returns FALSE (0000ms, 0822ms total)
T07B0 001:592 JLINK_IsHalted()  returns TRUE (0004ms, 0826ms total)
T07B0 001:596 JLINK_ReadReg(R15 (PC))  returns 0x01000000 (0000ms, 0822ms total)
T07B0 001:596 JLINK_ClrBPEx(BPHandle = 0x00000007)  returns 0x00 (0000ms, 0822ms total)
T07B0 001:596 JLINK_ReadReg(R0)  returns 0x00000000 (0000ms, 0822ms total)
T07B0 001:596 JLINK_WriteReg(R0, 0x00003000)  returns 0x00 (0000ms, 0822ms total)
T07B0 001:596 JLINK_WriteReg(R1, 0x00001000)  returns 0x00 (0000ms, 0822ms total)
T07B0 001:596 JLINK_WriteReg(R2, 0x000000FF)  returns 0x00 (0000ms, 0822ms total)
T07B0 001:596 JLINK_WriteReg(R3, 0x00000000)  returns 0x00 (0000ms, 0822ms total)
T07B0 001:596 JLINK_WriteReg(R4, 0x00000000)  returns 0x00 (0000ms, 0822ms total)
T07B0 001:596 JLINK_WriteReg(R5, 0x00000000)  returns 0x00 (0001ms, 0823ms total)
T07B0 001:597 JLINK_WriteReg(R6, 0x00000000)  returns 0x00 (0000ms, 0823ms total)
T07B0 001:597 JLINK_WriteReg(R7, 0x00000000)  returns 0x00 (0000ms, 0823ms total)
T07B0 001:597 JLINK_WriteReg(R8, 0x00000000)  returns 0x00 (0000ms, 0823ms total)
T07B0 001:597 JLINK_WriteReg(R9, 0x0100306C)  returns 0x00 (0000ms, 0823ms total)
T07B0 001:597 JLINK_WriteReg(R10, 0x00000000)  returns 0x00 (0000ms, 0823ms total)
T07B0 001:597 JLINK_WriteReg(R11, 0x00000000)  returns 0x00 (0000ms, 0823ms total)
T07B0 001:597 JLINK_WriteReg(R12, 0x00000000)  returns 0x00 (0000ms, 0823ms total)
T07B0 001:597 JLINK_WriteReg(R13 (SP), 0x0100E000)  returns 0x00 (0000ms, 0823ms total)
T07B0 001:597 JLINK_WriteReg(R14, 0x01000001)  returns 0x00 (0000ms, 0823ms total)
T07B0 001:597 JLINK_WriteReg(R15 (PC), 0x01000020)  returns 0x00 (0000ms, 0823ms total)
T07B0 001:597 JLINK_WriteReg(XPSR, 0x01000000)  returns 0x00 (0000ms, 0823ms total)
T07B0 001:597 JLINK_WriteReg(MSP, 0x0100E000)  returns 0x00 (0000ms, 0823ms total)
T07B0 001:597 JLINK_WriteReg(PSP, 0x0100E000)  returns 0x00 (0000ms, 0823ms total)
T07B0 001:597 JLINK_WriteReg(CFBP, 0x00000000)  returns 0x00 (0000ms, 0823ms total)
T07B0 001:597 JLINK_SetBPEx(Addr = 0x01000000, Type = 0xFFFFFFF2)  returns 0x00000008 (0000ms, 0823ms total)
T07B0 001:597 JLINK_Go() -- CPU_WriteMem(4 bytes @ 0xE0002000) (0003ms, 0826ms total)
T07B0 001:600 JLINK_IsHalted()  returns TRUE (0003ms, 0829ms total)
T07B0 001:603 JLINK_ReadReg(R15 (PC))  returns 0x01000000 (0000ms, 0826ms total)
T07B0 001:603 JLINK_ClrBPEx(BPHandle = 0x00000008)  returns 0x00 (0000ms, 0826ms total)
T07B0 001:603 JLINK_ReadReg(R0)  returns 0x00000001 (0000ms, 0826ms total)
T07B0 001:603 JLINK_WriteReg(R0, 0x00003000)  returns 0x00 (0000ms, 0826ms total)
T07B0 001:603 JLINK_WriteReg(R1, 0x00001000)  returns 0x00 (0000ms, 0826ms total)
T07B0 001:603 JLINK_WriteReg(R2, 0x000000FF)  returns 0x00 (0000ms, 0826ms total)
T07B0 001:603 JLINK_WriteReg(R3, 0x00000000)  returns 0x00 (0000ms, 0826ms total)
T07B0 001:603 JLINK_WriteReg(R4, 0x00000000)  returns 0x00 (0000ms, 0826ms total)
T07B0 001:603 JLINK_WriteReg(R5, 0x00000000)  returns 0x00 (0000ms, 0826ms total)
T07B0 001:603 JLINK_WriteReg(R6, 0x00000000)  returns 0x00 (0000ms, 0826ms total)
T07B0 001:603 JLINK_WriteReg(R7, 0x00000000)  returns 0x00 (0000ms, 0826ms total)
T07B0 001:603 JLINK_WriteReg(R8, 0x00000000)  returns 0x00 (0000ms, 0826ms total)
T07B0 001:603 JLINK_WriteReg(R9, 0x0100306C)  returns 0x00 (0000ms, 0826ms total)
T07B0 001:603 JLINK_WriteReg(R10, 0x00000000)  returns 0x00 (0000ms, 0826ms total)
T07B0 001:603 JLINK_WriteReg(R11, 0x00000000)  returns 0x00 (0000ms, 0826ms total)
T07B0 001:603 JLINK_WriteReg(R12, 0x00000000)  returns 0x00 (0000ms, 0826ms total)
T07B0 001:603 JLINK_WriteReg(R13 (SP), 0x0100E000)  returns 0x00 (0000ms, 0826ms total)
T07B0 001:603 JLINK_WriteReg(R14, 0x01000001)  returns 0x00 (0000ms, 0826ms total)
T07B0 001:603 JLINK_WriteReg(R15 (PC), 0x01000348)  returns 0x00 (0000ms, 0826ms total)
T07B0 001:603 JLINK_WriteReg(XPSR, 0x01000000)  returns 0x00 (0000ms, 0826ms total)
T07B0 001:603 JLINK_WriteReg(MSP, 0x0100E000)  returns 0x00 (0000ms, 0826ms total)
T07B0 001:603 JLINK_WriteReg(PSP, 0x0100E000)  returns 0x00 (0000ms, 0826ms total)
T07B0 001:603 JLINK_WriteReg(CFBP, 0x00000000)  returns 0x00 (0000ms, 0826ms total)
T07B0 001:603 JLINK_SetBPEx(Addr = 0x01000000, Type = 0xFFFFFFF2)  returns 0x00000009 (0000ms, 0826ms total)
T07B0 001:603 JLINK_Go() -- CPU_WriteMem(4 bytes @ 0xE0002000) (0003ms, 0829ms total)
T07B0 001:606 JLINK_IsHalted()  returns FALSE (0000ms, 0829ms total)
T07B0 001:612 JLINK_IsHalted()  returns FALSE (0000ms, 0829ms total)
T07B0 001:614 JLINK_IsHalted()  returns FALSE (0000ms, 0829ms total)
T07B0 001:616 JLINK_IsHalted()  returns TRUE (0003ms, 0832ms total)
T07B0 001:619 JLINK_ReadReg(R15 (PC))  returns 0x01000000 (0000ms, 0829ms total)
T07B0 001:619 JLINK_ClrBPEx(BPHandle = 0x00000009)  returns 0x00 (0000ms, 0829ms total)
T07B0 001:619 JLINK_ReadReg(R0)  returns 0x00000000 (0000ms, 0829ms total)
T07B0 001:620 JLINK_WriteReg(R0, 0x00004000)  returns 0x00 (0000ms, 0829ms total)
T07B0 001:620 JLINK_WriteReg(R1, 0x00001000)  returns 0x00 (0000ms, 0829ms total)
T07B0 001:620 JLINK_WriteReg(R2, 0x000000FF)  returns 0x00 (0000ms, 0829ms total)
T07B0 001:620 JLINK_WriteReg(R3, 0x00000000)  returns 0x00 (0000ms, 0829ms total)
T07B0 001:620 JLINK_WriteReg(R4, 0x00000000)  returns 0x00 (0000ms, 0829ms total)
T07B0 001:620 JLINK_WriteReg(R5, 0x00000000)  returns 0x00 (0000ms, 0829ms total)
T07B0 001:620 JLINK_WriteReg(R6, 0x00000000)  returns 0x00 (0000ms, 0829ms total)
T07B0 001:620 JLINK_WriteReg(R7, 0x00000000)  returns 0x00 (0000ms, 0829ms total)
T07B0 001:620 JLINK_WriteReg(R8, 0x00000000)  returns 0x00 (0000ms, 0829ms total)
T07B0 001:620 JLINK_WriteReg(R9, 0x0100306C)  returns 0x00 (0000ms, 0829ms total)
T07B0 001:620 JLINK_WriteReg(R10, 0x00000000)  returns 0x00 (0000ms, 0829ms total)
T07B0 001:620 JLINK_WriteReg(R11, 0x00000000)  returns 0x00 (0000ms, 0829ms total)
T07B0 001:620 JLINK_WriteReg(R12, 0x00000000)  returns 0x00 (0000ms, 0829ms total)
T07B0 001:620 JLINK_WriteReg(R13 (SP), 0x0100E000)  returns 0x00 (0000ms, 0829ms total)
T07B0 001:620 JLINK_WriteReg(R14, 0x01000001)  returns 0x00 (0000ms, 0829ms total)
T07B0 001:620 JLINK_WriteReg(R15 (PC), 0x01000020)  returns 0x00 (0000ms, 0829ms total)
T07B0 001:620 JLINK_WriteReg(XPSR, 0x01000000)  returns 0x00 (0000ms, 0829ms total)
T07B0 001:620 JLINK_WriteReg(MSP, 0x0100E000)  returns 0x00 (0000ms, 0829ms total)
T07B0 001:620 JLINK_WriteReg(PSP, 0x0100E000)  returns 0x00 (0001ms, 0830ms total)
T07B0 001:621 JLINK_WriteReg(CFBP, 0x00000000)  returns 0x00 (0000ms, 0830ms total)
T07B0 001:621 JLINK_SetBPEx(Addr = 0x01000000, Type = 0xFFFFFFF2)  returns 0x0000000A (0000ms, 0830ms total)
T07B0 001:621 JLINK_Go() -- CPU_WriteMem(4 bytes @ 0xE0002000) (0002ms, 0832ms total)
T07B0 001:623 JLINK_IsHalted()  returns TRUE (0003ms, 0835ms total)
T07B0 001:626 JLINK_ReadReg(R15 (PC))  returns 0x01000000 (0000ms, 0832ms total)
T07B0 001:626 JLINK_ClrBPEx(BPHandle = 0x0000000A)  returns 0x00 (0000ms, 0832ms total)
T07B0 001:626 JLINK_ReadReg(R0)  returns 0x00000001 (0000ms, 0832ms total)
T07B0 001:626 JLINK_WriteReg(R0, 0x00004000)  returns 0x00 (0000ms, 0832ms total)
T07B0 001:626 JLINK_WriteReg(R1, 0x00001000)  returns 0x00 (0000ms, 0832ms total)
T07B0 001:626 JLINK_WriteReg(R2, 0x000000FF)  returns 0x00 (0001ms, 0833ms total)
T07B0 001:627 JLINK_WriteReg(R3, 0x00000000)  returns 0x00 (0000ms, 0833ms total)
T07B0 001:627 JLINK_WriteReg(R4, 0x00000000)  returns 0x00 (0000ms, 0833ms total)
T07B0 001:627 JLINK_WriteReg(R5, 0x00000000)  returns 0x00 (0000ms, 0833ms total)
T07B0 001:627 JLINK_WriteReg(R6, 0x00000000)  returns 0x00 (0000ms, 0833ms total)
T07B0 001:627 JLINK_WriteReg(R7, 0x00000000)  returns 0x00 (0000ms, 0833ms total)
T07B0 001:627 JLINK_WriteReg(R8, 0x00000000)  returns 0x00 (0000ms, 0833ms total)
T07B0 001:627 JLINK_WriteReg(R9, 0x0100306C)  returns 0x00 (0000ms, 0833ms total)
T07B0 001:627 JLINK_WriteReg(R10, 0x00000000)  returns 0x00 (0000ms, 0833ms total)
T07B0 001:627 JLINK_WriteReg(R11, 0x00000000)  returns 0x00 (0000ms, 0833ms total)
T07B0 001:627 JLINK_WriteReg(R12, 0x00000000)  returns 0x00 (0000ms, 0833ms total)
T07B0 001:627 JLINK_WriteReg(R13 (SP), 0x0100E000)  returns 0x00 (0000ms, 0833ms total)
T07B0 001:627 JLINK_WriteReg(R14, 0x01000001)  returns 0x00 (0000ms, 0833ms total)
T07B0 001:627 JLINK_WriteReg(R15 (PC), 0x01000348)  returns 0x00 (0000ms, 0833ms total)
T07B0 001:627 JLINK_WriteReg(XPSR, 0x01000000)  returns 0x00 (0000ms, 0833ms total)
T07B0 001:627 JLINK_WriteReg(MSP, 0x0100E000)  returns 0x00 (0000ms, 0833ms total)
T07B0 001:627 JLINK_WriteReg(PSP, 0x0100E000)  returns 0x00 (0000ms, 0833ms total)
T07B0 001:627 JLINK_WriteReg(CFBP, 0x00000000)  returns 0x00 (0000ms, 0833ms total)
T07B0 001:627 JLINK_SetBPEx(Addr = 0x01000000, Type = 0xFFFFFFF2)  returns 0x0000000B (0000ms, 0833ms total)
T07B0 001:627 JLINK_Go() -- CPU_WriteMem(4 bytes @ 0xE0002000) (0002ms, 0835ms total)
T07B0 001:629 JLINK_IsHalted()  returns FALSE (0001ms, 0836ms total)
T07B0 001:639 JLINK_IsHalted()  returns TRUE (0003ms, 0838ms total)
T07B0 001:642 JLINK_ReadReg(R15 (PC))  returns 0x01000000 (0000ms, 0835ms total)
T07B0 001:642 JLINK_ClrBPEx(BPHandle = 0x0000000B)  returns 0x00 (0000ms, 0835ms total)
T07B0 001:642 JLINK_ReadReg(R0)  returns 0x00000000 (0000ms, 0835ms total)
T07B0 001:643 JLINK_WriteReg(R0, 0x00005000)  returns 0x00 (0000ms, 0835ms total)
T07B0 001:643 JLINK_WriteReg(R1, 0x00001000)  returns 0x00 (0000ms, 0835ms total)
T07B0 001:643 JLINK_WriteReg(R2, 0x000000FF)  returns 0x00 (0000ms, 0835ms total)
T07B0 001:643 JLINK_WriteReg(R3, 0x00000000)  returns 0x00 (0000ms, 0835ms total)
T07B0 001:643 JLINK_WriteReg(R4, 0x00000000)  returns 0x00 (0000ms, 0835ms total)
T07B0 001:643 JLINK_WriteReg(R5, 0x00000000)  returns 0x00 (0000ms, 0835ms total)
T07B0 001:643 JLINK_WriteReg(R6, 0x00000000)  returns 0x00 (0000ms, 0835ms total)
T07B0 001:643 JLINK_WriteReg(R7, 0x00000000)  returns 0x00 (0000ms, 0835ms total)
T07B0 001:643 JLINK_WriteReg(R8, 0x00000000)  returns 0x00 (0000ms, 0835ms total)
T07B0 001:643 JLINK_WriteReg(R9, 0x0100306C)  returns 0x00 (0000ms, 0835ms total)
T07B0 001:643 JLINK_WriteReg(R10, 0x00000000)  returns 0x00 (0000ms, 0835ms total)
T07B0 001:643 JLINK_WriteReg(R11, 0x00000000)  returns 0x00 (0000ms, 0835ms total)
T07B0 001:643 JLINK_WriteReg(R12, 0x00000000)  returns 0x00 (0000ms, 0835ms total)
T07B0 001:643 JLINK_WriteReg(R13 (SP), 0x0100E000)  returns 0x00 (0000ms, 0835ms total)
T07B0 001:644 JLINK_WriteReg(R14, 0x01000001)  returns 0x00 (0000ms, 0835ms total)
T07B0 001:644 JLINK_WriteReg(R15 (PC), 0x01000020)  returns 0x00 (0000ms, 0835ms total)
T07B0 001:644 JLINK_WriteReg(XPSR, 0x01000000)  returns 0x00 (0000ms, 0835ms total)
T07B0 001:644 JLINK_WriteReg(MSP, 0x0100E000)  returns 0x00 (0000ms, 0835ms total)
T07B0 001:644 JLINK_WriteReg(PSP, 0x0100E000)  returns 0x00 (0000ms, 0835ms total)
T07B0 001:644 JLINK_WriteReg(CFBP, 0x00000000)  returns 0x00 (0000ms, 0835ms total)
T07B0 001:644 JLINK_SetBPEx(Addr = 0x01000000, Type = 0xFFFFFFF2)  returns 0x0000000C (0000ms, 0835ms total)
T07B0 001:644 JLINK_Go() -- CPU_WriteMem(4 bytes @ 0xE0002000) (0003ms, 0838ms total)
T07B0 001:647 JLINK_IsHalted()  returns TRUE (0004ms, 0842ms total)
T07B0 001:651 JLINK_ReadReg(R15 (PC))  returns 0x01000000 (0000ms, 0838ms total)
T07B0 001:651 JLINK_ClrBPEx(BPHandle = 0x0000000C)  returns 0x00 (0000ms, 0838ms total)
T07B0 001:651 JLINK_ReadReg(R0)  returns 0x00000001 (0000ms, 0838ms total)
T07B0 001:651 JLINK_WriteReg(R0, 0x00005000)  returns 0x00 (0000ms, 0838ms total)
T07B0 001:651 JLINK_WriteReg(R1, 0x00001000)  returns 0x00 (0000ms, 0838ms total)
T07B0 001:651 JLINK_WriteReg(R2, 0x000000FF)  returns 0x00 (0000ms, 0838ms total)
T07B0 001:651 JLINK_WriteReg(R3, 0x00000000)  returns 0x00 (0000ms, 0838ms total)
T07B0 001:651 JLINK_WriteReg(R4, 0x00000000)  returns 0x00 (0000ms, 0838ms total)
T07B0 001:651 JLINK_WriteReg(R5, 0x00000000)  returns 0x00 (0001ms, 0839ms total)
T07B0 001:652 JLINK_WriteReg(R6, 0x00000000)  returns 0x00 (0000ms, 0839ms total)
T07B0 001:652 JLINK_WriteReg(R7, 0x00000000)  returns 0x00 (0000ms, 0839ms total)
T07B0 001:652 JLINK_WriteReg(R8, 0x00000000)  returns 0x00 (0000ms, 0839ms total)
T07B0 001:652 JLINK_WriteReg(R9, 0x0100306C)  returns 0x00 (0000ms, 0839ms total)
T07B0 001:652 JLINK_WriteReg(R10, 0x00000000)  returns 0x00 (0000ms, 0839ms total)
T07B0 001:652 JLINK_WriteReg(R11, 0x00000000)  returns 0x00 (0000ms, 0839ms total)
T07B0 001:652 JLINK_WriteReg(R12, 0x00000000)  returns 0x00 (0000ms, 0839ms total)
T07B0 001:652 JLINK_WriteReg(R13 (SP), 0x0100E000)  returns 0x00 (0000ms, 0839ms total)
T07B0 001:652 JLINK_WriteReg(R14, 0x01000001)  returns 0x00 (0001ms, 0840ms total)
T07B0 001:653 JLINK_WriteReg(R15 (PC), 0x01000348)  returns 0x00 (0000ms, 0840ms total)
T07B0 001:653 JLINK_WriteReg(XPSR, 0x01000000)  returns 0x00 (0000ms, 0840ms total)
T07B0 001:653 JLINK_WriteReg(MSP, 0x0100E000)  returns 0x00 (0000ms, 0840ms total)
T07B0 001:653 JLINK_WriteReg(PSP, 0x0100E000)  returns 0x00 (0000ms, 0840ms total)
T07B0 001:653 JLINK_WriteReg(CFBP, 0x00000000)  returns 0x00 (0000ms, 0840ms total)
T07B0 001:653 JLINK_SetBPEx(Addr = 0x01000000, Type = 0xFFFFFFF2)  returns 0x0000000D (0000ms, 0840ms total)
T07B0 001:653 JLINK_Go() -- CPU_WriteMem(4 bytes @ 0xE0002000) (0003ms, 0843ms total)
T07B0 001:656 JLINK_IsHalted()  returns FALSE (0001ms, 0844ms total)
T07B0 001:695 JLINK_IsHalted()  returns TRUE (0004ms, 0847ms total)
T07B0 001:699 JLINK_ReadReg(R15 (PC))  returns 0x01000000 (0000ms, 0843ms total)
T07B0 001:699 JLINK_ClrBPEx(BPHandle = 0x0000000D)  returns 0x00 (0000ms, 0843ms total)
T07B0 001:699 JLINK_ReadReg(R0)  returns 0x00000000 (0000ms, 0843ms total)
T07B0 001:703 JLINK_WriteReg(R0, 0x00006000)  returns 0x00 (0000ms, 0843ms total)
T07B0 001:703 JLINK_WriteReg(R1, 0x00001000)  returns 0x00 (0000ms, 0843ms total)
T07B0 001:703 JLINK_WriteReg(R2, 0x000000FF)  returns 0x00 (0000ms, 0843ms total)
T07B0 001:703 JLINK_WriteReg(R3, 0x00000000)  returns 0x00 (0000ms, 0843ms total)
T07B0 001:703 JLINK_WriteReg(R4, 0x00000000)  returns 0x00 (0000ms, 0843ms total)
T07B0 001:703 JLINK_WriteReg(R5, 0x00000000)  returns 0x00 (0000ms, 0843ms total)
T07B0 001:703 JLINK_WriteReg(R6, 0x00000000)  returns 0x00 (0000ms, 0843ms total)
T07B0 001:703 JLINK_WriteReg(R7, 0x00000000)  returns 0x00 (0001ms, 0844ms total)
T07B0 001:704 JLINK_WriteReg(R8, 0x00000000)  returns 0x00 (0000ms, 0844ms total)
T07B0 001:704 JLINK_WriteReg(R9, 0x0100306C)  returns 0x00 (0000ms, 0844ms total)
T07B0 001:704 JLINK_WriteReg(R10, 0x00000000)  returns 0x00 (0000ms, 0844ms total)
T07B0 001:704 JLINK_WriteReg(R11, 0x00000000)  returns 0x00 (0000ms, 0844ms total)
T07B0 001:704 JLINK_WriteReg(R12, 0x00000000)  returns 0x00 (0000ms, 0844ms total)
T07B0 001:704 JLINK_WriteReg(R13 (SP), 0x0100E000)  returns 0x00 (0000ms, 0844ms total)
T07B0 001:704 JLINK_WriteReg(R14, 0x01000001)  returns 0x00 (0000ms, 0844ms total)
T07B0 001:704 JLINK_WriteReg(R15 (PC), 0x01000020)  returns 0x00 (0000ms, 0844ms total)
T07B0 001:704 JLINK_WriteReg(XPSR, 0x01000000)  returns 0x00 (0000ms, 0844ms total)
T07B0 001:705 JLINK_WriteReg(MSP, 0x0100E000)  returns 0x00 (0000ms, 0845ms total)
T07B0 001:705 JLINK_WriteReg(PSP, 0x0100E000)  returns 0x00 (0000ms, 0845ms total)
T07B0 001:705 JLINK_WriteReg(CFBP, 0x00000000)  returns 0x00 (0000ms, 0845ms total)
T07B0 001:705 JLINK_SetBPEx(Addr = 0x01000000, Type = 0xFFFFFFF2)  returns 0x0000000E (0000ms, 0845ms total)
T07B0 001:705 JLINK_Go() -- CPU_WriteMem(4 bytes @ 0xE0002000) (0003ms, 0848ms total)
T07B0 001:708 JLINK_IsHalted()  returns TRUE (0004ms, 0852ms total)
T07B0 001:712 JLINK_ReadReg(R15 (PC))  returns 0x01000000 (0000ms, 0848ms total)
T07B0 001:712 JLINK_ClrBPEx(BPHandle = 0x0000000E)  returns 0x00 (0000ms, 0848ms total)
T07B0 001:712 JLINK_ReadReg(R0)  returns 0x00000001 (0000ms, 0848ms total)
T07B0 001:712 JLINK_WriteReg(R0, 0x00006000)  returns 0x00 (0000ms, 0848ms total)
T07B0 001:712 JLINK_WriteReg(R1, 0x00001000)  returns 0x00 (0000ms, 0848ms total)
T07B0 001:712 JLINK_WriteReg(R2, 0x000000FF)  returns 0x00 (0000ms, 0848ms total)
T07B0 001:712 JLINK_WriteReg(R3, 0x00000000)  returns 0x00 (0000ms, 0848ms total)
T07B0 001:712 JLINK_WriteReg(R4, 0x00000000)  returns 0x00 (0000ms, 0848ms total)
T07B0 001:712 JLINK_WriteReg(R5, 0x00000000)  returns 0x00 (0001ms, 0849ms total)
T07B0 001:713 JLINK_WriteReg(R6, 0x00000000)  returns 0x00 (0000ms, 0849ms total)
T07B0 001:713 JLINK_WriteReg(R7, 0x00000000)  returns 0x00 (0000ms, 0849ms total)
T07B0 001:713 JLINK_WriteReg(R8, 0x00000000)  returns 0x00 (0000ms, 0849ms total)
T07B0 001:713 JLINK_WriteReg(R9, 0x0100306C)  returns 0x00 (0000ms, 0849ms total)
T07B0 001:713 JLINK_WriteReg(R10, 0x00000000)  returns 0x00 (0000ms, 0849ms total)
T07B0 001:713 JLINK_WriteReg(R11, 0x00000000)  returns 0x00 (0000ms, 0849ms total)
T07B0 001:713 JLINK_WriteReg(R12, 0x00000000)  returns 0x00 (0000ms, 0849ms total)
T07B0 001:713 JLINK_WriteReg(R13 (SP), 0x0100E000)  returns 0x00 (0000ms, 0849ms total)
T07B0 001:713 JLINK_WriteReg(R14, 0x01000001)  returns 0x00 (0001ms, 0850ms total)
T07B0 001:714 JLINK_WriteReg(R15 (PC), 0x01000348)  returns 0x00 (0000ms, 0850ms total)
T07B0 001:714 JLINK_WriteReg(XPSR, 0x01000000)  returns 0x00 (0000ms, 0850ms total)
T07B0 001:714 JLINK_WriteReg(MSP, 0x0100E000)  returns 0x00 (0000ms, 0850ms total)
T07B0 001:714 JLINK_WriteReg(PSP, 0x0100E000)  returns 0x00 (0000ms, 0850ms total)
T07B0 001:714 JLINK_WriteReg(CFBP, 0x00000000)  returns 0x00 (0000ms, 0850ms total)
T07B0 001:714 JLINK_SetBPEx(Addr = 0x01000000, Type = 0xFFFFFFF2)  returns 0x0000000F (0000ms, 0850ms total)
T07B0 001:714 JLINK_Go() -- CPU_WriteMem(4 bytes @ 0xE0002000) (0003ms, 0853ms total)
T07B0 001:717 JLINK_IsHalted()  returns FALSE (0001ms, 0854ms total)
T07B0 001:729 JLINK_IsHalted()  returns TRUE (0003ms, 0856ms total)
T07B0 001:732 JLINK_ReadReg(R15 (PC))  returns 0x01000000 (0000ms, 0853ms total)
T07B0 001:732 JLINK_ClrBPEx(BPHandle = 0x0000000F)  returns 0x00 (0001ms, 0854ms total)
T07B0 001:733 JLINK_ReadReg(R0)  returns 0x00000000 (0000ms, 0854ms total)
T07B0 001:735 JLINK_WriteReg(R0, 0x00007000)  returns 0x00 (0000ms, 0854ms total)
T07B0 001:735 JLINK_WriteReg(R1, 0x00001000)  returns 0x00 (0000ms, 0854ms total)
T07B0 001:735 JLINK_WriteReg(R2, 0x000000FF)  returns 0x00 (0000ms, 0854ms total)
T07B0 001:735 JLINK_WriteReg(R3, 0x00000000)  returns 0x00 (0000ms, 0854ms total)
T07B0 001:735 JLINK_WriteReg(R4, 0x00000000)  returns 0x00 (0000ms, 0854ms total)
T07B0 001:735 JLINK_WriteReg(R5, 0x00000000)  returns 0x00 (0001ms, 0855ms total)
T07B0 001:736 JLINK_WriteReg(R6, 0x00000000)  returns 0x00 (0000ms, 0855ms total)
T07B0 001:736 JLINK_WriteReg(R7, 0x00000000)  returns 0x00 (0000ms, 0855ms total)
T07B0 001:736 JLINK_WriteReg(R8, 0x00000000)  returns 0x00 (0000ms, 0855ms total)
T07B0 001:736 JLINK_WriteReg(R9, 0x0100306C)  returns 0x00 (0000ms, 0855ms total)
T07B0 001:736 JLINK_WriteReg(R10, 0x00000000)  returns 0x00 (0000ms, 0855ms total)
T07B0 001:736 JLINK_WriteReg(R11, 0x00000000)  returns 0x00 (0000ms, 0855ms total)
T07B0 001:736 JLINK_WriteReg(R12, 0x00000000)  returns 0x00 (0000ms, 0855ms total)
T07B0 001:736 JLINK_WriteReg(R13 (SP), 0x0100E000)  returns 0x00 (0000ms, 0855ms total)
T07B0 001:736 JLINK_WriteReg(R14, 0x01000001)  returns 0x00 (0000ms, 0855ms total)
T07B0 001:736 JLINK_WriteReg(R15 (PC), 0x01000020)  returns 0x00 (0001ms, 0856ms total)
T07B0 001:737 JLINK_WriteReg(XPSR, 0x01000000)  returns 0x00 (0000ms, 0856ms total)
T07B0 001:737 JLINK_WriteReg(MSP, 0x0100E000)  returns 0x00 (0000ms, 0856ms total)
T07B0 001:737 JLINK_WriteReg(PSP, 0x0100E000)  returns 0x00 (0000ms, 0856ms total)
T07B0 001:737 JLINK_WriteReg(CFBP, 0x00000000)  returns 0x00 (0000ms, 0856ms total)
T07B0 001:737 JLINK_SetBPEx(Addr = 0x01000000, Type = 0xFFFFFFF2)  returns 0x00000010 (0000ms, 0856ms total)
T07B0 001:737 JLINK_Go() -- CPU_WriteMem(4 bytes @ 0xE0002000) (0003ms, 0859ms total)
T07B0 001:740 JLINK_IsHalted()  returns TRUE (0004ms, 0863ms total)
T07B0 001:744 JLINK_ReadReg(R15 (PC))  returns 0x01000000 (0000ms, 0859ms total)
T07B0 001:744 JLINK_ClrBPEx(BPHandle = 0x00000010)  returns 0x00 (0000ms, 0859ms total)
T07B0 001:744 JLINK_ReadReg(R0)  returns 0x00000001 (0000ms, 0859ms total)
T07B0 001:744 JLINK_WriteReg(R0, 0x00007000)  returns 0x00 (0000ms, 0859ms total)
T07B0 001:744 JLINK_WriteReg(R1, 0x00001000)  returns 0x00 (0000ms, 0859ms total)
T07B0 001:744 JLINK_WriteReg(R2, 0x000000FF)  returns 0x00 (0001ms, 0860ms total)
T07B0 001:745 JLINK_WriteReg(R3, 0x00000000)  returns 0x00 (0000ms, 0860ms total)
T07B0 001:745 JLINK_WriteReg(R4, 0x00000000)  returns 0x00 (0000ms, 0860ms total)
T07B0 001:745 JLINK_WriteReg(R5, 0x00000000)  returns 0x00 (0000ms, 0860ms total)
T07B0 001:745 JLINK_WriteReg(R6, 0x00000000)  returns 0x00 (0000ms, 0860ms total)
T07B0 001:745 JLINK_WriteReg(R7, 0x00000000)  returns 0x00 (0000ms, 0860ms total)
T07B0 001:745 JLINK_WriteReg(R8, 0x00000000)  returns 0x00 (0000ms, 0860ms total)
T07B0 001:745 JLINK_WriteReg(R9, 0x0100306C)  returns 0x00 (0000ms, 0860ms total)
T07B0 001:745 JLINK_WriteReg(R10, 0x00000000)  returns 0x00 (0000ms, 0860ms total)
T07B0 001:745 JLINK_WriteReg(R11, 0x00000000)  returns 0x00 (0000ms, 0860ms total)
T07B0 001:745 JLINK_WriteReg(R12, 0x00000000)  returns 0x00 (0000ms, 0860ms total)
T07B0 001:746 JLINK_WriteReg(R13 (SP), 0x0100E000)  returns 0x00 (0000ms, 0861ms total)
T07B0 001:746 JLINK_WriteReg(R14, 0x01000001)  returns 0x00 (0000ms, 0861ms total)
T07B0 001:746 JLINK_WriteReg(R15 (PC), 0x01000348)  returns 0x00 (0000ms, 0861ms total)
T07B0 001:746 JLINK_WriteReg(XPSR, 0x01000000)  returns 0x00 (0000ms, 0861ms total)
T07B0 001:746 JLINK_WriteReg(MSP, 0x0100E000)  returns 0x00 (0000ms, 0861ms total)
T07B0 001:746 JLINK_WriteReg(PSP, 0x0100E000)  returns 0x00 (0000ms, 0861ms total)
T07B0 001:746 JLINK_WriteReg(CFBP, 0x00000000)  returns 0x00 (0000ms, 0861ms total)
T07B0 001:746 JLINK_SetBPEx(Addr = 0x01000000, Type = 0xFFFFFFF2)  returns 0x00000011 (0000ms, 0861ms total)
T07B0 001:746 JLINK_Go() -- CPU_WriteMem(4 bytes @ 0xE0002000) (0003ms, 0864ms total)
T07B0 001:749 JLINK_IsHalted()  returns FALSE (0001ms, 0865ms total)
T07B0 001:788 JLINK_IsHalted()  returns TRUE (0003ms, 0867ms total)
T07B0 001:791 JLINK_ReadReg(R15 (PC))  returns 0x01000000 (0000ms, 0864ms total)
T07B0 001:791 JLINK_ClrBPEx(BPHandle = 0x00000011)  returns 0x00 (0000ms, 0864ms total)
T07B0 001:791 JLINK_ReadReg(R0)  returns 0x00000000 (0000ms, 0864ms total)
T07B0 001:793 JLINK_WriteReg(R0, 0x00000001)  returns 0x00 (0000ms, 0864ms total)
T07B0 001:793 JLINK_WriteReg(R1, 0x00001000)  returns 0x00 (0000ms, 0864ms total)
T07B0 001:793 JLINK_WriteReg(R2, 0x000000FF)  returns 0x00 (0000ms, 0864ms total)
T07B0 001:793 JLINK_WriteReg(R3, 0x00000000)  returns 0x00 (0000ms, 0864ms total)
T07B0 001:793 JLINK_WriteReg(R4, 0x00000000)  returns 0x00 (0001ms, 0865ms total)
T07B0 001:794 JLINK_WriteReg(R5, 0x00000000)  returns 0x00 (0000ms, 0865ms total)
T07B0 001:794 JLINK_WriteReg(R6, 0x00000000)  returns 0x00 (0000ms, 0865ms total)
T07B0 001:794 JLINK_WriteReg(R7, 0x00000000)  returns 0x00 (0000ms, 0865ms total)
T07B0 001:794 JLINK_WriteReg(R8, 0x00000000)  returns 0x00 (0000ms, 0865ms total)
T07B0 001:794 JLINK_WriteReg(R9, 0x0100306C)  returns 0x00 (0000ms, 0865ms total)
T07B0 001:794 JLINK_WriteReg(R10, 0x00000000)  returns 0x00 (0000ms, 0865ms total)
T07B0 001:794 JLINK_WriteReg(R11, 0x00000000)  returns 0x00 (0000ms, 0865ms total)
T07B0 001:794 JLINK_WriteReg(R12, 0x00000000)  returns 0x00 (0000ms, 0865ms total)
T07B0 001:794 JLINK_WriteReg(R13 (SP), 0x0100E000)  returns 0x00 (0000ms, 0865ms total)
T07B0 001:794 JLINK_WriteReg(R14, 0x01000001)  returns 0x00 (0001ms, 0866ms total)
T07B0 001:795 JLINK_WriteReg(R15 (PC), 0x010001BA)  returns 0x00 (0000ms, 0866ms total)
T07B0 001:795 JLINK_WriteReg(XPSR, 0x01000000)  returns 0x00 (0000ms, 0866ms total)
T07B0 001:795 JLINK_WriteReg(MSP, 0x0100E000)  returns 0x00 (0000ms, 0866ms total)
T07B0 001:795 JLINK_WriteReg(PSP, 0x0100E000)  returns 0x00 (0000ms, 0866ms total)
T07B0 001:795 JLINK_WriteReg(CFBP, 0x00000000)  returns 0x00 (0000ms, 0866ms total)
T07B0 001:795 JLINK_SetBPEx(Addr = 0x01000000, Type = 0xFFFFFFF2)  returns 0x00000012 (0000ms, 0866ms total)
T07B0 001:795 JLINK_Go() -- CPU_WriteMem(4 bytes @ 0xE0002000) (0003ms, 0869ms total)
T07B0 001:798 JLINK_IsHalted()  returns TRUE (0004ms, 0873ms total)
T07B0 001:802 JLINK_ReadReg(R15 (PC))  returns 0x01000000 (0000ms, 0869ms total)
T07B0 001:802 JLINK_ClrBPEx(BPHandle = 0x00000012)  returns 0x00 (0000ms, 0869ms total)
T07B0 001:802 JLINK_ReadReg(R0)  returns 0x00000000 (0000ms, 0869ms total)
T07B0 001:900 JLINK_WriteMem(0x01000000, 0x351C Bytes, ...) - Data: 00 BE 0A E0 0D 78 2D 06 68 40 08 24 40 00 00 D3 ... -- CPU_WriteMem(13596 bytes @ 0x01000000)  returns 0x351C (0154ms, 1023ms total)
T07B0 002:054 JLINK_WriteReg(R0, 0x00000000)  returns 0x00 (0000ms, 1023ms total)
T07B0 002:054 JLINK_WriteReg(R1, 0x00B71B00)  returns 0x00 (0000ms, 1023ms total)
T07B0 002:054 JLINK_WriteReg(R2, 0x00000002)  returns 0x00 (0000ms, 1023ms total)
T07B0 002:054 JLINK_WriteReg(R3, 0x00000000)  returns 0x00 (0000ms, 1023ms total)
T07B0 002:054 JLINK_WriteReg(R4, 0x00000000)  returns 0x00 (0000ms, 1023ms total)
T07B0 002:055 JLINK_WriteReg(R5, 0x00000000)  returns 0x00 (0000ms, 1024ms total)
T07B0 002:055 JLINK_WriteReg(R6, 0x00000000)  returns 0x00 (0000ms, 1024ms total)
T07B0 002:055 JLINK_WriteReg(R7, 0x00000000)  returns 0x00 (0000ms, 1024ms total)
T07B0 002:055 JLINK_WriteReg(R8, 0x00000000)  returns 0x00 (0000ms, 1024ms total)
T07B0 002:055 JLINK_WriteReg(R9, 0x0100306C)  returns 0x00 (0000ms, 1024ms total)
T07B0 002:055 JLINK_WriteReg(R10, 0x00000000)  returns 0x00 (0000ms, 1024ms total)
T07B0 002:055 JLINK_WriteReg(R11, 0x00000000)  returns 0x00 (0000ms, 1024ms total)
T07B0 002:055 JLINK_WriteReg(R12, 0x00000000)  returns 0x00 (0001ms, 1025ms total)
T07B0 002:056 JLINK_WriteReg(R13 (SP), 0x0100E000)  returns 0x00 (0000ms, 1025ms total)
T07B0 002:056 JLINK_WriteReg(R14, 0x01000001)  returns 0x00 (0000ms, 1025ms total)
T07B0 002:056 JLINK_WriteReg(R15 (PC), 0x010000F0)  returns 0x00 (0000ms, 1025ms total)
T07B0 002:056 JLINK_WriteReg(XPSR, 0x01000000)  returns 0x00 (0000ms, 1025ms total)
T07B0 002:056 JLINK_WriteReg(MSP, 0x0100E000)  returns 0x00 (0000ms, 1025ms total)
T07B0 002:056 JLINK_WriteReg(PSP, 0x0100E000)  returns 0x00 (0000ms, 1025ms total)
T07B0 002:056 JLINK_WriteReg(CFBP, 0x00000000)  returns 0x00 (0000ms, 1025ms total)
T07B0 002:057 JLINK_SetBPEx(Addr = 0x01000000, Type = 0xFFFFFFF2)  returns 0x00000013 (0000ms, 1026ms total)
T07B0 002:057 JLINK_Go() -- CPU_WriteMem(4 bytes @ 0xE0002000) (0002ms, 1028ms total)
T07B0 002:059 JLINK_IsHalted()  returns TRUE (0004ms, 1032ms total)
T07B0 002:063 JLINK_ReadReg(R15 (PC))  returns 0x01000000 (0000ms, 1028ms total)
